T27A4 140161:967 SEGGER J-Link V6.48a Log File (0000ms, 183488ms total)
T27A4 140161:967 DLL Compiled: Jul 30 2019 15:16:09 (0000ms, 183488ms total)
T27A4 140161:967 Logging started @ 2021-11-07 18:34 (0000ms, 183488ms total)
T27A4 140161:967 JLINK_ExecCommand("device = ATSAM4LS4A", ...). Device "ATSAM4LS4A" selected.  returns 0x00 (0001ms, 183489ms total)
T27A4 140161:969 JLINK_GetHWStatus(...)  returns 0x00 (0000ms, 183490ms total)
T27A4 140161:969 JLINK_ClrRESET() (0000ms, 183490ms total)
T27A4 140161:976 JLINK_SetRESET() (0000ms, 183490ms total)
T27A4 140161:982 JLINK_ClrRESET() (0000ms, 183490ms total)
T27A4 140161:988 JLINK_ClrTCK()  returns 0x00 (0000ms, 183490ms total)
T27A4 140161:994 JLINK_SetRESET() (0001ms, 183491ms total)
T27A4 140162:004 JLINK_Clock()  returns 0x00 (0000ms, 183492ms total)
T27A4 140162:011 JLINK_TIF_Select(JLINKARM_TIF_SWD)  returns 0x00 (0001ms, 183493ms total)
T27A4 140162:012 JLINK_SetSpeed(50) (0000ms, 183493ms total)
T27A4 140162:012 JLINK_CORESIGHT_Configure()  returns 0 (0009ms, 183502ms total)
T27A4 140162:021 JLINK_CORESIGHT_WriteAPDPReg(DP reg 0x02, 0x01000000)  returns 0 (0001ms, 183503ms total)
T27A4 140162:022 JLINK_CORESIGHT_WriteAPDPReg(AP reg 0x00, 0x00000001)  returns 0 (0001ms, 183504ms total)
T27A4 140162:023 JLINK_CORESIGHT_WriteAPDPReg(DP reg 0x02, 0x01000000)  returns 0 (0002ms, 183506ms total)
T27A4 140162:025 JLINK_CORESIGHT_WriteAPDPReg(AP reg 0x00, 0x00000001)  returns 0 (0001ms, 183507ms total)
T27A4 140162:026 JLINK_CORESIGHT_WriteAPDPReg(AP reg 0x00, 0x00000010)  returns 0 (0001ms, 183508ms total)
T27A4 140162:027 JLINK_CORESIGHT_ReadAPDPReg(AP reg 0x01) -- Value=0x01000502  returns 0 (0003ms, 183511ms total)
T27A4 140162:030 JLINK_CORESIGHT_ReadAPDPReg(DP reg 0x03) -- Value=0x01000502  returns 0 (0002ms, 183513ms total)
T27A4 140162:232 JLINK_CORESIGHT_ReadAPDPReg(AP reg 0x01) -- Value=0x01000502  returns 0 (0002ms, 183515ms total)
T27A4 140162:234 JLINK_CORESIGHT_ReadAPDPReg(DP reg 0x03) -- Value=0x01000502  returns 0 (0001ms, 183516ms total)
T2700 140162:266 JLINK_EMU_GetList(InterfaceMask = 0x00000001, MaxInfos = 0x00000032) [0]: USB, S/N: -1  returns 0x01 (0001ms, 183517ms total)
T2700 140162:267 JLINK_EMU_GetList(InterfaceMask = 0x00000002, MaxInfos = 0x00000032)   returns 0x00 (0024ms, 183541ms total)
T27A4 140162:437 JLINK_CORESIGHT_ReadAPDPReg(AP reg 0x01) -- Value=0x01000503  returns 0 (0002ms, 183543ms total)
T27A4 140162:439 JLINK_CORESIGHT_ReadAPDPReg(DP reg 0x03) -- Value=0x01000503  returns 0 (0002ms, 183545ms total)
T27A4 140162:449 JLINK_ExecCommand("Device = ATSAM4LS4A", ...). Device "ATSAM4LS4A" selected.  returns 0x00 (0001ms, 183546ms total)
T27A4 140162:450 JLINK_TIF_Select(JLINKARM_TIF_SWD)  returns 0x00 (0000ms, 183546ms total)
T27A4 140162:450 JLINK_SetSpeed(4000) (0001ms, 183547ms total)
T27A4 140162:451 JLINK_ResetPullsRESET(OFF) (0000ms, 183547ms total)
T27A4 140162:451 JLINK_Connect() >0x10B TIF>Found SW-DP with ID 0x2BA01477 >0x0D TIF> >0x28 TIF> >0x0D TIF> >0x28 TIF> >0x0D TIF> >0x28 TIF> >0x0D TIF> >0x28 TIF> >0x0D TIF> >0x21 TIF> >0x0D TIF> >0x28 TIF> >0x0D TIF> >0x28 TIF> >0x0D TIF> >0x0D TIF> >0x21 TIF> >0x0D TIF> >0x21 TIF> >0x0D TIF> >0x28 TIF> >0x0D TIF> >0x21 TIF> >0x0D TIF> >0x28 TIF> >0x0D TIF> >0x28 TIF> >0x0D TIF> >0x0D TIF> >0x28 TIF> >0x0D TIF> >0x28 TIF> >0x0D TIF> >0x28 TIF> >0x0D TIF> >0x28 TIF> >0x0D TIF> >0x28 TIF> >0x0D TIF>
 >0x0D TIF> >0x21 TIF> >0x0D TIF> >0x21 TIF> >0x0D TIF> >0x28 TIF> >0x0D TIF> >0x0D TIF> >0x28 TIF> >0x0D TIF> >0x28 TIF> >0x0D TIF> >0x0D TIF> >0x28 TIF> >0x0D TIF> >0x28 TIF> >0x0D TIF> >0x28 TIF> >0x10B TIF>Found SW-DP with ID 0x2BA01477 >0x0D TIF> >0x28 TIF> >0x0D TIF> >0x28 TIF> >0x0D TIF> >0x28 TIF> >0x0D TIF> >0x28 TIF> >0x0D TIF> >0x21 TIF> >0x0D TIF> >0x28 TIF>Scanning AP map to find all available APs >0x0D TIF> >0x28 TIF> >0x0D TIF> >0x21 TIF> >0x0D TIF> >0x21 TIF> >0x0D TIF> >0x28 TIF>
 >0x0D TIF> >0x21 TIF> >0x0D TIF> >0x21 TIF> >0x0D TIF> >0x28 TIF> >0x0D TIF> >0x21 TIF> >0x0D TIF> >0x21 TIF>AP[2]: Stopped AP scan as end of AP map has been reachedAP[0]: AHB-AP (IDR: 0x24770011)AP[1]: JTAG-AP (IDR: 0x003E0000)Iterating through AP map to find AHB-AP to use >0x42 TIF> >0x28 TIF> >0x0D TIF> >0x28 TIF> >0x0D TIF> >0x21 TIF> >0x0D TIF> >0x21 TIF> >0x42 TIF> >0x28 TIF> >0x0D TIF> >0x28 TIF> >0x0D TIF> >0x28 TIF> >0x0D TIF> >0x0D TIF> >0x21 TIF> >0x0D TIF> >0x21 TIF>AP[0]: Core found
AP[0]: AHB-AP ROM base: 0xE00FF000 >0x0D TIF> >0x28 TIF> >0x0D TIF> >0x28 TIF> >0x0D TIF> >0x28 TIF> >0x0D TIF> >0x0D TIF> >0x21 TIF> >0x0D TIF> >0x21 TIF>CPUID register: 0x410FC241. Implementer code: 0x41 (ARM)Found Cortex-M4 r0p1, Little endian. -- Max. mem block: 0x00010E60 -- CPU_ReadMem(4 bytes @ 0xE000EDF0) -- CPU_ReadMem(4 bytes @ 0xE0002000)FPUnit: 6 code (BP) slots and 2 literal slots -- CPU_ReadMem(4 bytes @ 0xE000EDFC) -- CPU_ReadMem(4 bytes @ 0xE0001000) -- CPU_WriteMem(4 bytes @ 0xE0001000)
 -- CPU_ReadMem(4 bytes @ 0xE000ED88) -- CPU_WriteMem(4 bytes @ 0xE000ED88) -- CPU_ReadMem(4 bytes @ 0xE000ED88) -- CPU_WriteMem(4 bytes @ 0xE000ED88)CoreSight components:ROMTbl[0] @ E00FF000 -- CPU_ReadMem(16 bytes @ 0xE00FF000) -- CPU_ReadMem(16 bytes @ 0xE000EFF0) -- CPU_ReadMem(16 bytes @ 0xE000EFE0)ROMTbl[0][0]: E000E000, CID: B105E00D, PID: 000BB000 SCS -- CPU_ReadMem(16 bytes @ 0xE0001FF0) -- CPU_ReadMem(16 bytes @ 0xE0001FE0)ROMTbl[0][1]: E0001000, CID: B105E00D, PID: 003BB002 DWT
 -- CPU_ReadMem(16 bytes @ 0xE0002FF0) -- CPU_ReadMem(16 bytes @ 0xE0002FE0)ROMTbl[0][2]: E0002000, CID: B105E00D, PID: 002BB003 FPB -- CPU_ReadMem(16 bytes @ 0xE0000FF0) -- CPU_ReadMem(16 bytes @ 0xE0000FE0)ROMTbl[0][3]: E0000000, CID: B105E00D, PID: 003BB001 ITM -- CPU_ReadMem(16 bytes @ 0xE00FF010) -- CPU_ReadMem(16 bytes @ 0xE0040FF0) -- CPU_ReadMem(16 bytes @ 0xE0040FE0)ROMTbl[0][4]: E0040000, CID: B105900D, PID: 000BB9A1 TPIU -- CPU_ReadMem(4 bytes @ 0xE0042000) -- CPU is running
 -- CPU_WriteMem(4 bytes @ 0xE0042000) -- CPU_ReadMem(4 bytes @ 0x400F0C00)  returns 0x00 (0209ms, 183756ms total)
T27A4 140162:660 JLINK_Halt()  returns 0x00 (0015ms, 183771ms total)
T27A4 140162:678 JLINK_JTAG_GetDeviceID(DeviceIndex = 0)  returns 0x00 (0000ms, 183771ms total)
T27A4 140162:678 JLINK_ReadMemU32(0x400E0740, 0x0001 Items, ...) -- CPU_ReadMem(4 bytes @ 0x400E0740) - Data: E1 09 0A AB  returns 1 (0002ms, 183773ms total)
T2AF0 140162:713 JLINK_IsHalted()  returns TRUE (0005ms, 183778ms total)
T2AF0 140162:718 JLINK_GetMOEs(...) -- CPU_ReadMem(4 bytes @ 0xE000ED30)  returns 0x01 (0019ms, 183792ms total)
T2AF0 140162:737 JLINK_ReadReg(R15 (PC))  returns 0xFFFFFFFE (0000ms, 183792ms total)
T27A4 140162:750 JLINK_BeginDownload(Flags = 0x00) (0000ms, 183792ms total)
T27A4 140162:750 JLINK_WriteMem(0x00000000, 0x60D0 Bytes, ...) - Data: 38 1E 00 20 E9 2D 00 00 FD 22 00 00 E5 2D 00 00 ... -- Read from flash cache (24784 bytes @ 0x00000000)  returns 0x60D0 (0001ms, 183793ms total)
T27A4 140162:752 JLINK_WriteMem(0x000060D0, 0x0008 Bytes, ...) - Data: 58 FB FF 7F 01 00 00 00  returns 0x08 (0001ms, 183794ms total)
T27A4 140162:754 JLINK_WriteMem(0x000060D8, 0x0AB8 Bytes, ...) - Data: 07 4A 08 4B 9A 61 C1 61 19 46 07 4A 48 69 13 68 ... -- Read from flash cache (2744 bytes @ 0x000060D8)  returns 0xAB8 (0000ms, 183794ms total)
T27A4 140162:773 JLINK_EndDownload() -- CPU_ReadMem(4 bytes @ 0xE000ED90) -- CPU_ReadMem(4 bytes @ 0xE000ED94) -- -------------------------------------- -- Start of determining dirty areas in flash cache -- End of determining dirty areas -- Start of preparing flash programming -- Calculating RAM usage -- RAM usage = 3844 Bytes -- Preserving CPU registers -- Preparing memory -- Preparing target -- Downloading RAMCode -- Checking target RAM -- Preparing RAMCode -- End of preparing flash programming
 -- CPU is running at 10000 kHz. -- Start of comparing flash -- CRC check was estimated as fastest method -- Comparing range 0x0000 - 0x6BFF (54 Sectors, 27 KB), using multi-block CRC calculation -- CRC does not match for sectors 0-53 -- End of comparing flash -- Start of erasing sectors -- End of erasing sectors -- Start of flash programming -- Programming range 0x00000000 - 0x00006BFF ( 54 Sectors, 27 KB) -- End of flash programming -- 0x0000 - 0x6BFF ( 54 Sectors, 27 KB) -- Start of verifying flash
 -- Checksum calculation was estimated as fastest method -- End of verifying flash -- Start of restoring -- Restoring RAMCode -- Restore target -- Restore memory -- Restoring CPU registers -- End of restoring -- Bank 0 @ 0x00000000: 1 range affected (27648 bytes) -- Total time needed: 0.403s (Prepare: 0.046s, Compare: 0.012s, Erase: 0.000s, Program: 0.317s, Verify: 0.004s, Restore: 0.022s)  returns 0x6C00 (0406ms, 184200ms total)
T27A4 140163:180 JLINK_SetResetType(JLINKARM_CM3_RESET_TYPE_NORMAL)  returns JLINKARM_CM3_RESET_TYPE_NORMAL (0000ms, 184200ms total)
T27A4 140163:180 JLINK_Reset() >0x10B TIF>Found SW-DP with ID 0x2BA01477 >0x0D TIF> >0x28 TIF> >0x0D TIF> >0x28 TIF> >0x0D TIF> >0x28 TIF> >0x0D TIF> >0x21 TIF> >0x0D TIF> >0x28 TIF> >0x0D TIF> >0x28 TIF> >0x0D TIF> >0x0D TIF> >0x28 TIF> >0x0D TIF> >0x28 TIF> >0x0D TIF> >0x28 TIF> >0x0D TIF> >0x28 TIF> >0x0D TIF> >0x28 TIF> >0x0D TIF> >0x0D TIF> >0x21 TIF> >0x0D TIF> >0x21 TIF> >0x0D TIF> >0x28 TIF> >0x0D TIF> >0x0D TIF> >0x28 TIF> >0x0D TIF> >0x28 TIF> >0x0D TIF> >0x0D TIF> >0x28 TIF> >0x0D TIF>
 >0x28 TIF> >0x0D TIF> >0x28 TIF> -- CPU_ReadMem(4 bytes @ 0xE0042000) -- CPU_WriteMem(4 bytes @ 0xE0042000) -- CPU_ReadMem(4 bytes @ 0x400F0C00) -- CPU_ReadMem(4 bytes @ 0x400F0800) -- CPU_WriteMem(4 bytes @ 0xE0002000) -- CPU_ReadMem(4 bytes @ 0xE000EDFC) -- CPU_ReadMem(4 bytes @ 0xE0001000) -- CPU_WriteMem(4 bytes @ 0xE0001000) (0071ms, 184271ms total)
T2700 140163:337 JLINK_EMU_GetList(InterfaceMask = 0x00000001, MaxInfos = 0x00000032) [0]: USB, S/N: -1  returns 0x01 (0001ms, 184272ms total)
T2700 140163:339 JLINK_EMU_GetList(InterfaceMask = 0x00000002, MaxInfos = 0x00000032)   returns 0x00 (0026ms, 184298ms total)
T2AF0 140163:365 JLINK_IsHalted()  returns TRUE (0000ms, 184298ms total)
T1570 140163:520 JLINK_Halt()  returns 0x00 (0000ms, 184298ms total)
T1570 140163:520 JLINK_ReadReg(R15 (PC))  returns 0x00002DE8 (0000ms, 184298ms total)
T1570 140163:520 JLINK_ReadReg(R13 (SP))  returns 0x20001E38 (0000ms, 184298ms total)
T1570 140163:527 JLINK_ReadMemHW(0x00002DE8, 0x0004 Bytes, ...) -- CPU_ReadMem(4 bytes @ 0x00002DE8) - Data: 08 B5 17 4B  returns 0x00 (0001ms, 184299ms total)
T1570 140163:528 JLINK_ReadReg(R0)  returns 0x0500BEF5 (0000ms, 184299ms total)
T1570 140163:528 JLINK_ReadReg(R1)  returns 0x00000000 (0000ms, 184299ms total)
T1570 140163:528 JLINK_ReadReg(R2)  returns 0x200006CC (0001ms, 184300ms total)
T1570 140163:529 JLINK_ReadReg(R3)  returns 0xFDA269C6 (0000ms, 184300ms total)
T1570 140163:529 JLINK_ReadReg(R4)  returns 0x20000674 (0000ms, 184300ms total)
T1570 140163:529 JLINK_ReadReg(R5)  returns 0x20000694 (0000ms, 184300ms total)
T1570 140163:529 JLINK_ReadReg(R6)  returns 0x20000694 (0000ms, 184300ms total)
T1570 140163:529 JLINK_ReadReg(R7)  returns 0x0500BEF5 (0000ms, 184300ms total)
T1570 140163:529 JLINK_ReadReg(R8)  returns 0x02149E01 (0000ms, 184300ms total)
T1570 140163:529 JLINK_ReadReg(R9)  returns 0x00000308 (0000ms, 184300ms total)
T1570 140163:529 JLINK_ReadReg(R10)  returns 0x01005000 (0000ms, 184300ms total)
T1570 140163:529 JLINK_ReadReg(R11)  returns 0x80080120 (0000ms, 184300ms total)
T1570 140163:529 JLINK_ReadReg(R12)  returns 0x200005E8 (0000ms, 184300ms total)
T1570 140163:529 JLINK_ReadReg(R13 (SP))  returns 0x20001E38 (0000ms, 184300ms total)
T1570 140163:529 JLINK_ReadReg(R14)  returns 0xFFFFFFFF (0000ms, 184300ms total)
T1570 140163:529 JLINK_ReadReg(R15 (PC))  returns 0x00002DE8 (0000ms, 184300ms total)
T1570 140163:529 JLINK_ReadReg(XPSR)  returns 0x01000000 (0000ms, 184300ms total)
T1570 140163:529 JLINK_ReadReg(MSP)  returns 0x20001E38 (0000ms, 184300ms total)
T1570 140163:529 JLINK_ReadReg(PSP)  returns 0x00081800 (0000ms, 184300ms total)
T1570 140163:529 JLINK_ReadReg(PRIMASK)  returns 0x00000000 (0000ms, 184300ms total)
T1570 140163:529 JLINK_ReadReg(BASEPRI)  returns 0x00000000 (0000ms, 184300ms total)
T1570 140163:529 JLINK_ReadReg(FAULTMASK)  returns 0x00000000 (0000ms, 184300ms total)
T1570 140163:529 JLINK_ReadReg(CONTROL)  returns 0x00000000 (0000ms, 184300ms total)
T1570 140163:530 JLINK_ReadMemHW(0x00002DE8, 0x0002 Bytes, ...) -- CPU_ReadMem(2 bytes @ 0x00002DE8) - Data: 08 B5  returns 0x00 (0000ms, 184300ms total)
T2AF0 140163:570 JLINK_IsHalted()  returns TRUE (0000ms, 184300ms total)
T2AF0 140163:770 JLINK_IsHalted()  returns TRUE (0000ms, 184300ms total)
T1570 140163:780 JLINK_ReadReg(R0)  returns 0x0500BEF5 (0000ms, 184300ms total)
T1570 140163:780 JLINK_ReadReg(R1)  returns 0x00000000 (0000ms, 184300ms total)
T1570 140163:781 JLINK_ReadReg(R2)  returns 0x200006CC (0000ms, 184301ms total)
T1570 140163:781 JLINK_ReadReg(R3)  returns 0xFDA269C6 (0000ms, 184301ms total)
T1570 140163:781 JLINK_ReadReg(R4)  returns 0x20000674 (0000ms, 184301ms total)
T1570 140163:781 JLINK_ReadReg(R5)  returns 0x20000694 (0000ms, 184301ms total)
T1570 140163:781 JLINK_ReadReg(R6)  returns 0x20000694 (0000ms, 184301ms total)
T1570 140163:781 JLINK_ReadReg(R7)  returns 0x0500BEF5 (0000ms, 184301ms total)
T1570 140163:781 JLINK_ReadReg(R8)  returns 0x02149E01 (0000ms, 184301ms total)
T1570 140163:781 JLINK_ReadReg(R9)  returns 0x00000308 (0000ms, 184301ms total)
T1570 140163:781 JLINK_ReadReg(R10)  returns 0x01005000 (0000ms, 184301ms total)
T1570 140163:781 JLINK_ReadReg(R11)  returns 0x80080120 (0000ms, 184301ms total)
T1570 140163:781 JLINK_ReadReg(R12)  returns 0x200005E8 (0000ms, 184301ms total)
T1570 140163:781 JLINK_ReadReg(R13 (SP))  returns 0x20001E38 (0000ms, 184301ms total)
T1570 140163:781 JLINK_ReadReg(R14)  returns 0xFFFFFFFF (0000ms, 184301ms total)
T1570 140163:781 JLINK_ReadReg(R15 (PC))  returns 0x00002DE8 (0000ms, 184301ms total)
T1570 140163:781 JLINK_ReadReg(XPSR)  returns 0x01000000 (0000ms, 184301ms total)
T1570 140163:781 JLINK_ReadReg(MSP)  returns 0x20001E38 (0000ms, 184301ms total)
T1570 140163:781 JLINK_ReadReg(PSP)  returns 0x00081800 (0000ms, 184301ms total)
T1570 140163:781 JLINK_ReadReg(PRIMASK)  returns 0x00000000 (0000ms, 184301ms total)
T1570 140163:781 JLINK_ReadReg(BASEPRI)  returns 0x00000000 (0000ms, 184301ms total)
T1570 140163:781 JLINK_ReadReg(FAULTMASK)  returns 0x00000000 (0000ms, 184301ms total)
T1570 140163:781 JLINK_ReadReg(CONTROL)  returns 0x00000000 (0001ms, 184302ms total)
T1570 140163:803 JLINK_ReadMemHW(0x00002DE8, 0x0004 Bytes, ...) -- CPU_ReadMem(4 bytes @ 0x00002DE8) - Data: 08 B5 17 4B  returns 0x00 (0000ms, 184302ms total)
T1570 140163:843 JLINK_ReadMemHW(0x00002EBE, 0x0002 Bytes, ...) -- CPU_ReadMem(2 bytes @ 0x00002EBE) - Data: 18 4B  returns 0x00 (0001ms, 184303ms total)
T1570 140163:844 JLINK_ReadMemHW(0x00002F20, 0x0004 Bytes, ...) -- CPU_ReadMem(4 bytes @ 0x00002F20) - Data: 00 10 0E 40  returns 0x00 (0001ms, 184304ms total)
T1570 140163:846 JLINK_ReadMemHW(0x00002EE8, 0x0002 Bytes, ...) -- CPU_ReadMem(2 bytes @ 0x00002EE8) - Data: 0E 2B  returns 0x00 (0000ms, 184304ms total)
T27A4 140163:868 JLINK_GetNumBPUnits(Type = 0xFFFFFF02)  returns 0x06 (0000ms, 184304ms total)
T27A4 140163:868 JLINK_SetBPEx(Addr = 0x00002EE8, Type = 0xFFFFFFF2)  returns 0x00000001 (0000ms, 184304ms total)
T27A4 140163:868 JLINK_GetBPInfo(BPHandle = 1)  returns 0x00 (0001ms, 184305ms total)
T1570 140163:891 JLINK_SetResetType(JLINKARM_CM3_RESET_TYPE_NORMAL)  returns JLINKARM_CM3_RESET_TYPE_NORMAL (0000ms, 184305ms total)
T1570 140163:891 JLINK_Reset() >0x10B TIF>Found SW-DP with ID 0x2BA01477 >0x0D TIF> >0x28 TIF> >0x0D TIF> >0x28 TIF> >0x0D TIF> >0x28 TIF> >0x0D TIF> >0x21 TIF> >0x0D TIF> >0x28 TIF> >0x0D TIF> >0x28 TIF> >0x0D TIF> >0x0D TIF> >0x28 TIF> >0x0D TIF> >0x28 TIF> >0x0D TIF> >0x28 TIF> >0x0D TIF> >0x28 TIF> >0x0D TIF> >0x28 TIF> >0x0D TIF> >0x0D TIF> >0x21 TIF> >0x0D TIF> >0x21 TIF> >0x0D TIF> >0x28 TIF> >0x0D TIF> >0x0D TIF> >0x28 TIF> >0x0D TIF> >0x28 TIF> >0x0D TIF> >0x0D TIF> >0x28 TIF> >0x0D TIF>
 >0x28 TIF> >0x0D TIF> >0x28 TIF> -- CPU_ReadMem(4 bytes @ 0xE0042000) -- CPU_WriteMem(4 bytes @ 0xE0042000) -- CPU_ReadMem(4 bytes @ 0x400F0C00) -- CPU_ReadMem(4 bytes @ 0x400F0800) -- CPU_WriteMem(4 bytes @ 0xE0002000) -- CPU_ReadMem(4 bytes @ 0xE000EDFC) -- CPU_ReadMem(4 bytes @ 0xE0001000) -- CPU_WriteMem(4 bytes @ 0xE0001000) (0070ms, 184375ms total)
T2AF0 140163:961 JLINK_IsHalted()  returns TRUE (0000ms, 184375ms total)
T2AF0 140163:961 JLINK_GetMOEs(...) -- CPU_ReadMem(4 bytes @ 0xE000ED30)  returns 0x01 (0001ms, 184376ms total)
T2AF0 140163:962 JLINK_ReadReg(R15 (PC))  returns 0x00002DE8 (0000ms, 184376ms total)
T1570 140163:971 JLINK_ReadReg(R15 (PC))  returns 0x00002DE8 (0000ms, 184376ms total)
T1570 140163:971 JLINK_ReadReg(R13 (SP))  returns 0x20001E38 (0000ms, 184376ms total)
T1570 140163:971 JLINK_ReadMemHW(0x00002DE8, 0x0004 Bytes, ...) -- CPU_ReadMem(4 bytes @ 0x00002DE8) - Data: 08 B5 17 4B  returns 0x00 (0001ms, 184377ms total)
T1570 140164:033 JLINK_ReadMemHW(0x000030E4, 0x0001 Bytes, ...) -- CPU_ReadMem(1 bytes @ 0x000030E4) - Data: 38  returns 0x00 (0000ms, 184377ms total)
T1570 140164:095 JLINK_ReadReg(R15 (PC))  returns 0x00002DE8 (0000ms, 184377ms total)
T1570 140164:095 JLINK_SetBPEx(Addr = 0x000030E4, Type = 0xFFFFFFF2)  returns 0x00000002 (0000ms, 184377ms total)
T1570 140164:095 JLINK_GetBPInfo(BPHandle = 2)  returns 0x00 (0000ms, 184377ms total)
T1570 140164:096 JLINK_Go() -- CPU_WriteMem(4 bytes @ 0xE0002000) -- CPU_WriteMem(4 bytes @ 0xE0002000) -- CPU_ReadMem(4 bytes @ 0xE0001000) -- CPU_WriteMem(4 bytes @ 0xE000ED30) -- CPU_WriteMem(4 bytes @ 0xE0002008) -- CPU_WriteMem(4 bytes @ 0xE000200C) -- CPU_WriteMem(4 bytes @ 0xE0002010) -- CPU_WriteMem(4 bytes @ 0xE0002014) -- CPU_WriteMem(4 bytes @ 0xE0002018) -- CPU_WriteMem(4 bytes @ 0xE000201C) -- CPU_WriteMem(4 bytes @ 0xE0001004) (0007ms, 184384ms total)
T2AF0 140164:103 JLINK_IsHalted()  returns FALSE (0000ms, 184384ms total)
T2AF0 140164:123 JLINK_IsHalted()  returns FALSE (0001ms, 184385ms total)
T2AF0 140164:204 JLINK_IsHalted()  returns TRUE (0016ms, 184400ms total)
T2AF0 140164:220 JLINK_GetMOEs(...) -- CPU_ReadMem(4 bytes @ 0xE000ED30)  returns 0x01 (0001ms, 184385ms total)
T2AF0 140164:221 JLINK_ReadReg(R15 (PC))  returns 0x000030E4 (0001ms, 184386ms total)
T1570 140164:229 JLINK_ReadReg(R15 (PC))  returns 0x000030E4 (0000ms, 184386ms total)
T1570 140164:229 JLINK_ReadReg(R13 (SP))  returns 0x20001E30 (0001ms, 184387ms total)
T1570 140164:231 JLINK_ReadMemHW(0x000030E4, 0x0004 Bytes, ...) -- CPU_ReadMem(4 bytes @ 0x000030E4) - Data: 38 B5 0B 4B  returns 0x00 (0001ms, 184388ms total)
T2AF0 140164:424 JLINK_IsHalted()  returns TRUE (0000ms, 184388ms total)
T2700 140164:452 JLINK_EMU_GetList(InterfaceMask = 0x00000001, MaxInfos = 0x00000032) [0]: USB, S/N: -1  returns 0x01 (0001ms, 184389ms total)
T2700 140164:453 JLINK_EMU_GetList(InterfaceMask = 0x00000002, MaxInfos = 0x00000032)   returns 0x00 (0026ms, 184415ms total)
T1570 140164:486 JLINK_WriteU32(0xE000EDFC, 0x01000000) -- CPU_WriteMem(4 bytes @ 0xE000EDFC)  returns 0 (0001ms, 184416ms total)
T1570 140164:487 JLINK_ReadMem (0xE0001000, 0x0004 Bytes, ...) -- CPU_ReadMem(4 bytes @ 0xE0001000) - Data: 01 00 00 40  returns 0x00 (0001ms, 184417ms total)
T1570 140164:488 JLINK_WriteU32(0xE0001000, 0x40000001)  returns 0 (0000ms, 184417ms total)
T1570 140164:488 JLINK_WriteU32(0xE0001028, 0x00000100)  returns 0 (0000ms, 184417ms total)
T1570 140164:488 JLINK_ReadMem (0xE0001028, 0x0004 Bytes, ...) -- CPU_WriteMem(4 bytes @ 0xE0001028) -- CPU_ReadMem(4 bytes @ 0xE0001028) - Data: 00 00 00 00  returns 0x00 (0002ms, 184419ms total)
T1570 140164:490 JLINK_WriteU32(0xE0001024, 0x0000001F)  returns 0 (0001ms, 184420ms total)
T1570 140164:491 JLINK_ReadMem (0xE0001024, 0x0004 Bytes, ...) -- CPU_WriteMem(4 bytes @ 0xE0001024) -- CPU_ReadMem(4 bytes @ 0xE0001024) - Data: 0F 00 00 00  returns 0x00 (0001ms, 184421ms total)
T1570 140164:492 JLINK_WriteU32(0xE0001038, 0x00000100)  returns 0 (0000ms, 184421ms total)
T1570 140164:492 JLINK_ReadMem (0xE0001038, 0x0004 Bytes, ...) -- CPU_WriteMem(4 bytes @ 0xE0001038) -- CPU_ReadMem(4 bytes @ 0xE0001038) - Data: 00 03 00 00  returns 0x00 (0002ms, 184423ms total)
T1570 140164:494 JLINK_WriteU32(0xE0001034, 0x0000001F)  returns 0 (0000ms, 184423ms total)
T1570 140164:494 JLINK_ReadMem (0xE0001034, 0x0004 Bytes, ...) -- CPU_WriteMem(4 bytes @ 0xE0001034) -- CPU_ReadMem(4 bytes @ 0xE0001034) - Data: 0F 00 00 00  returns 0x00 (0003ms, 184426ms total)
T1570 140164:497 JLINK_WriteU32(0xE0001048, 0x00000100)  returns 0 (0000ms, 184426ms total)
T1570 140164:497 JLINK_ReadMem (0xE0001048, 0x0004 Bytes, ...) -- CPU_WriteMem(4 bytes @ 0xE0001048) -- CPU_ReadMem(4 bytes @ 0xE0001048) - Data: 00 00 00 00  returns 0x00 (0002ms, 184428ms total)
T1570 140164:499 JLINK_WriteU32(0xE0001044, 0x0000001F)  returns 0 (0000ms, 184428ms total)
T1570 140164:499 JLINK_ReadMem (0xE0001044, 0x0004 Bytes, ...) -- CPU_WriteMem(4 bytes @ 0xE0001044) -- CPU_ReadMem(4 bytes @ 0xE0001044) - Data: 0F 00 00 00  returns 0x00 (0002ms, 184430ms total)
T1570 140164:501 JLINK_WriteU32(0xE0001058, 0x00000100)  returns 0 (0000ms, 184430ms total)
T1570 140164:501 JLINK_ReadMem (0xE0001058, 0x0004 Bytes, ...) -- CPU_WriteMem(4 bytes @ 0xE0001058) -- CPU_ReadMem(4 bytes @ 0xE0001058) - Data: 00 00 00 00  returns 0x00 (0001ms, 184431ms total)
T1570 140164:503 JLINK_WriteU32(0xE0001054, 0x0000001F)  returns 0 (0000ms, 184432ms total)
T1570 140164:503 JLINK_ReadMem (0xE0001054, 0x0004 Bytes, ...) -- CPU_WriteMem(4 bytes @ 0xE0001054) -- CPU_ReadMem(4 bytes @ 0xE0001054) - Data: 0F 00 00 00  returns 0x00 (0002ms, 184434ms total)
T1570 140164:505 JLINK_WriteU32(0xE0001020, 0x00000000)  returns 0 (0000ms, 184434ms total)
T1570 140164:505 JLINK_WriteU32(0xE0001024, 0x00000000)  returns 0 (0000ms, 184434ms total)
T1570 140164:505 JLINK_WriteU32(0xE0001028, 0x00000000)  returns 0 (0000ms, 184434ms total)
T1570 140164:505 JLINK_WriteU32(0xE0001030, 0x00000000)  returns 0 (0001ms, 184435ms total)
T1570 140164:506 JLINK_WriteU32(0xE0001034, 0x00000000)  returns 0 (0000ms, 184435ms total)
T1570 140164:506 JLINK_WriteU32(0xE0001038, 0x00000000)  returns 0 (0000ms, 184435ms total)
T1570 140164:506 JLINK_WriteU32(0xE0001040, 0x00000000)  returns 0 (0000ms, 184435ms total)
T1570 140164:506 JLINK_WriteU32(0xE0001044, 0x00000000)  returns 0 (0000ms, 184435ms total)
T1570 140164:506 JLINK_WriteU32(0xE0001048, 0x00000000)  returns 0 (0000ms, 184435ms total)
T1570 140164:506 JLINK_WriteU32(0xE0001050, 0x00000000)  returns 0 (0001ms, 184436ms total)
T1570 140164:507 JLINK_WriteU32(0xE0001054, 0x00000000)  returns 0 (0000ms, 184436ms total)
T1570 140164:507 JLINK_WriteU32(0xE0001058, 0x00000000)  returns 0 (0000ms, 184436ms total)
T1570 140164:507 JLINK_GetBPInfo(BPHandle = 2)  returns 0x00 (0000ms, 184436ms total)
T1570 140164:507 JLINK_ClrBPEx(BPHandle = 0x00000002)  returns 0x00 (0000ms, 184436ms total)
T1570 140164:507 JLINK_ReadReg(R15 (PC))  returns 0x000030E4 (0000ms, 184436ms total)
T1570 140164:508 JLINK_Go() -- CPU_WriteMem(4 bytes @ 0xE0002000) -- CPU_WriteMem(4 bytes @ 0xE0001000) -- CPU_ReadMem(4 bytes @ 0xE0001000) -- CPU_WriteMem(4 bytes @ 0xE000ED30) -- CPU_WriteMem(4 bytes @ 0xE0001020) -- CPU_WriteMem(4 bytes @ 0xE0001030) -- CPU_WriteMem(4 bytes @ 0xE0001040) -- CPU_WriteMem(4 bytes @ 0xE0001050) -- CPU_WriteMem(4 bytes @ 0xE0001024) -- CPU_WriteMem(4 bytes @ 0xE0001034) -- CPU_WriteMem(4 bytes @ 0xE0001044) -- CPU_WriteMem(4 bytes @ 0xE0001054)
 -- CPU_WriteMem(4 bytes @ 0xE0001028) -- CPU_WriteMem(4 bytes @ 0xE0001038) -- CPU_WriteMem(4 bytes @ 0xE0001048) -- CPU_WriteMem(4 bytes @ 0xE0001058) -- CPU_WriteMem(4 bytes @ 0xE000200C) (0011ms, 184447ms total)
T2AF0 140164:519 JLINK_IsHalted()  returns FALSE (0001ms, 184448ms total)
T2AF0 140164:560 JLINK_IsHalted()  returns FALSE (0001ms, 184448ms total)
T2AF0 140164:724 JLINK_IsHalted()  returns FALSE (0000ms, 184447ms total)
T2AF0 140164:925 JLINK_IsHalted()  returns FALSE (0002ms, 184449ms total)
T2AF0 140165:128 JLINK_IsHalted()  returns FALSE (0000ms, 184447ms total)
T2AF0 140165:331 JLINK_IsHalted()  returns FALSE (0000ms, 184447ms total)
T2AF0 140165:543 JLINK_IsHalted()  returns FALSE (0005ms, 184452ms total)
T2AF0 140165:750 JLINK_IsHalted()  returns FALSE (0000ms, 184447ms total)
T2AF0 140165:952 JLINK_IsHalted()  returns FALSE (0000ms, 184447ms total)
T2AF0 140166:153 JLINK_IsHalted()  returns FALSE (0000ms, 184447ms total)
T2AF0 140166:354 JLINK_IsHalted()  returns FALSE (0000ms, 184447ms total)
T2AF0 140166:555 JLINK_IsHalted()  returns FALSE (0000ms, 184447ms total)
T2700 140166:654 JLINK_EMU_GetList(InterfaceMask = 0x00000001, MaxInfos = 0x00000032) [0]: USB, S/N: -1  returns 0x01 (0001ms, 184448ms total)
T2700 140166:656 JLINK_EMU_GetList(InterfaceMask = 0x00000002, MaxInfos = 0x00000032)   returns 0x00 (0024ms, 184472ms total)
T2AF0 140166:756 JLINK_IsHalted()  returns FALSE (0000ms, 184472ms total)
